# Hz S RI R 50
400000000 0.3840883999941724 -0.36705448207803015
401000000 0.363538176477446 -0.34831116901750836
402000000 0.3496817994280542 -0.3262026274803139
403000000 0.3394601802968713 -0.3014054935864302
404000000 0.3388855345510584 -0.2772016257840625
405000000 0.34141664161760504 -0.25146119201892503
406000000 0.35331466835945113 -0.23239285237583743
407000000 0.3685719073917858 -0.21874594200030634
408000000 0.3857884118691355 -0.21163791364457485
409000000 0.4042803778663593 -0.21335974291344462
410000000 0.4204235598323878 -0.21894230864566658
411000000 0.4337305098605848 -0.23155668330089582
412000000 0.44253298733081514 -0.24850914319327344
413000000 0.44544347154361363 -0.2666481076088727
414000000 0.4458373677006626 -0.2879266275952869
415000000 0.43902922450807064 -0.30713886910056826
416000000 0.4318232022787536 -0.32594482605980996
417000000 0.41926132181384446 -0.34672186448649694
418000000 0.40408059432437127 -0.3634931060327615
419000000 0.3878658354639225 -0.37989893619975323
420000000 0.36885109880021255 -0.394108576276906
421000000 0.3469104155821846 -0.40876150169055836
422000000 0.3232337167688703 -0.4184247434114466
423000000 0.2990166003702413 -0.43129501326011793
424000000 0.27205467263921707 -0.4356023720139877
425000000 0.24730925332727322 -0.4430164590321071
426000000 0.21912068373746554 -0.4453927728843996
427000000 0.19279897663822151 -0.44665599082902974
428000000 0.1648336794407583 -0.4468461143354208
429000000 0.13954616649973897 -0.44600496826180713
430000000 0.1098552070415787 -0.4437276307100984
431000000 0.08426715318424997 -0.43952606044705445
432000000 0.056329831574476 -0.4333116655494594
433000000 0.029158674277456404 -0.4274111415602895
434000000 0.0009972147799112022 -0.4195807300783921
435000000 -0.023155836834923782 -0.4086905166128781
436000000 -0.048355915820693186 -0.3982189942062517
437000000 -0.07333580840152179 -0.386302001869303
438000000 -0.09845021336547778 -0.3744328423004597
439000000 -0.12233865181314793 -0.35886793688110014
440000000 -0.1456823565039941 -0.3462774544666023
441000000 -0.16910444649053097 -0.3315263515413155
442000000 -0.1933400665858546 -0.3156909332593483
443000000 -0.21617748028355332 -0.2983422198521181
444000000 -0.2401448329113464 -0.2795737485553492
445000000 -0.2624425440833742 -0.2593302299626918
446000000 -0.2837413742078346 -0.23754168147092217
447000000 -0.3053443207665569 -0.21638311734474477
448000000 -0.3239564737937908 -0.19194439111088207
449000000 -0.3438247483586662 -0.16704558873652037
450000000 -0.36146281938857117 -0.13993277718140257
451000000 -0.37333598979844357 -0.11239554417931827
452000000 -0.38761066225126817 -0.08418486533463657
453000000 -0.3991267960637162 -0.054472716527933215
454000000 -0.4084029431735663 -0.027064626675028437
455000000 -0.4114849171528277 0.00047987752775558714
456000000 -0.4240707897547984 0.03044936354021446
457000000 -0.43064764567473407 0.05844904044508823
458000000 -0.4341801290278206 0.08731907222612498
459000000 -0.4357222880892559 0.11539186037864832
460000000 -0.43919547973710543 0.14313075729748065
461000000 -0.4412540139228936 0.1707172096117738
462000000 -0.4395488102363566 0.19699670708738326
463000000 -0.4385360756837611 0.22538715294043346
464000000 -0.4360849036584477 0.24978445018314283
465000000 -0.4321476972704824 0.27491916002157707
466000000 -0.43084661475400216 0.3006032068447455
467000000 -0.4238528137127681 0.3240929276039077
468000000 -0.4176542970725181 0.3559380803938194
469000000 -0.409689824397952 0.3728744476514196
470000000 -0.40183456930611633 0.39212346099976997
471000000 -0.39361396639178314 0.4174605371443252
472000000 -0.38242258438139987 0.4375963466438541
473000000 -0.3749394450009005 0.45773311673132056
474000000 -0.36498471312532915 0.4767146609778707
475000000 -0.3518307847848478 0.4939735226063053
476000000 -0.34328830133676086 0.5107271730495575
477000000 -0.3332938371105715 0.5268316524936342
478000000 -0.32018869043093684 0.5414594018328237
479000000 -0.3065812095423624 0.5558850544358799
480000000 -0.29788783525599066 0.5712904134022412
481000000 -0.2854829021199966 0.5881368884840247
482000000 -0.276307475696387 0.5972039136249597
483000000 -0.2666644481893799 0.6121018259788868
484000000 -0.2529634797340146 0.6192640292740199
485000000 -0.24041193664044258 0.6319853542682256
486000000 -0.23016098232059035 0.6411068982998104
487000000 -0.22052801864924876 0.6535489112365612
488000000 -0.20759750726102705 0.6611008617640978
489000000 -0.19931410220990425 0.6724621315042142
490000000 -0.18826391336515128 0.6806318414757577
491000000 -0.17800744309053312 0.6896635062878019
492000000 -0.1683266323392752 0.6987869058305705
493000000 -0.15899178903331324 0.7075917849880706
494000000 -0.1485049959044134 0.7189483304485733
495000000 -0.1363138532019275 0.7251505569696733
496000000 -0.12737495083015798 0.7326481384279284
497000000 -0.11560281638671069 0.7395135429167728
498000000 -0.10688410338911117 0.7460881488823636
499000000 -0.09637457054254693 0.7516490368628493
500000000 -0.08417506640434069 0.7588658080154292
