# Hz S RI R 50
400000000 -0.5102639717142778 -0.01138381824904831
401000000 -0.5059300241211214 0.00174487820458194
402000000 -0.5016929284871658 0.013027911563893779
403000000 -0.4989094905007625 0.024866210910211906
404000000 -0.49120096105903494 0.03758492417198403
405000000 -0.4863792271556824 0.04840166582771295
406000000 -0.48009990684261317 0.05968770414278637
407000000 -0.47124841741348 0.06810657695174521
408000000 -0.46407092410051276 0.08030380812073305
409000000 -0.4574150261774708 0.08957747821208004
410000000 -0.44668798031582974 0.09932292329867848
411000000 -0.4377201863466167 0.10932153803728863
412000000 -0.42779794197679755 0.11784589957409874
413000000 -0.4166946158171474 0.12623362990297907
414000000 -0.4059446864827965 0.13263849561814575
415000000 -0.3923342556880731 0.13790423763639864
416000000 -0.3795872226490715 0.14517251845969087
417000000 -0.3673702144710213 0.15093408752157172
418000000 -0.35390472073686724 0.15472748322232008
419000000 -0.3406080175472814 0.15998399797770116
420000000 -0.32623269474115174 0.1615152368573286
421000000 -0.31247836201522233 0.16395415901612403
422000000 -0.29851902988954543 0.16599216195349276
423000000 -0.28416835327619094 0.1660665636432553
424000000 -0.2680388865254328 0.1665267848272079
425000000 -0.25416730208983723 0.16180960853593665
426000000 -0.2382189789397176 0.1631047732153761
427000000 -0.22273117456732447 0.1581844171023733
428000000 -0.2084776545419274 0.15420922924152378
429000000 -0.19285769874968486 0.14825117212868597
430000000 -0.17863750166774672 0.14357626420189465
431000000 -0.16354340470182807 0.13603424435599631
432000000 -0.1497632699181483 0.12901668109558806
433000000 -0.13586765084151614 0.11989251589037357
434000000 -0.12268594467329448 0.11019937511987048
435000000 -0.11006234439180891 0.09980289816996071
436000000 -0.0976152056221512 0.08830236008915054
437000000 -0.08624960134654935 0.07715347507491084
438000000 -0.0751378196793962 0.06381224640713977
439000000 -0.06451613188493824 0.050588770020310654
440000000 -0.05471230125911869 0.036310302622890554
441000000 -0.04602688416499533 0.021832507412632422
442000000 -0.03893510599814989 0.005529875987840801
443000000 -0.03181423693988049 -0.009052861177624811
444000000 -0.026421836081835934 -0.025706863712284103
445000000 -0.020831735399087146 -0.04094220052907482
446000000 -0.01692444728471011 -0.05762503871831074
447000000 -0.013575944843542185 -0.07494085494820647
448000000 -0.010923142604605328 -0.09159259192935075
449000000 -0.01083112638722912 -0.10938943588541025
450000000 -0.01028581849476396 -0.12632225875466116
451000000 -0.006922336557390308 -0.14162456234734136
452000000 -0.008905531071940781 -0.15889941963121856
453000000 -0.01211926749945942 -0.1749514083724775
454000000 -0.015478231430956117 -0.1921780022794552
455000000 -0.016906845845812028 -0.20423932464539607
456000000 -0.02534222263860266 -0.2238450013329702
457000000 -0.030730411658166888 -0.23918559122437463
458000000 -0.0386154611980029 -0.25333815738595306
459000000 -0.04681123217944517 -0.2670466972346044
460000000 -0.055118751156510035 -0.28137900781189024
461000000 -0.06589507206764454 -0.29608363954413514
462000000 -0.07327790326231444 -0.3082163544557034
463000000 -0.08493293928051245 -0.3197464724152629
464000000 -0.09654375648102204 -0.331378296264274
465000000 -0.10676779037313638 -0.3417952215128567
466000000 -0.12075153946205099 -0.35218214436189627
467000000 -0.13209746245960163 -0.3611792373351616
468000000 -0.1432918153742133 -0.37059346364204065
469000000 -0.15573255983903397 -0.37690475468152973
470000000 -0.1684216492396551 -0.384811417224231
471000000 -0.18452466526365127 -0.391277591749929
472000000 -0.19698132985921585 -0.39588305890939385
473000000 -0.21195183853922628 -0.40164214450453534
474000000 -0.22477004284941737 -0.40659123562399896
475000000 -0.2397640881761459 -0.4115683959408036
476000000 -0.25248075759615796 -0.4139866730449228
477000000 -0.2648914204279383 -0.41934082294020153
478000000 -0.27875529955950534 -0.4181917151071812
479000000 -0.29275773964268276 -0.42029316692942703
480000000 -0.306822300593052 -0.42132478592434364
481000000 -0.3156519479116991 -0.4246264575732048
482000000 -0.3345998036842781 -0.42114721785093323
483000000 -0.3458520981449577 -0.42054296853549755
484000000 -0.3593235055071459 -0.4180701862469439
485000000 -0.37255890394431457 -0.41876247936401856
486000000 -0.38398155653009264 -0.4157958193960227
487000000 -0.3974581985278503 -0.4134119702545837
488000000 -0.4085677837058982 -0.4092375864276797
489000000 -0.4203744187508781 -0.40812045826775484
490000000 -0.43317786256432594 -0.4040730475912486
491000000 -0.443534218824259 -0.40024188750450845
492000000 -0.45501424243549066 -0.3955778303092431
493000000 -0.4642666284861593 -0.3912925188857815
494000000 -0.4807053433644557 -0.38631647326035107
495000000 -0.4868470756008858 -0.38066512384615536
496000000 -0.4971758180336135 -0.3753862175804662
497000000 -0.5046300549199315 -0.36920392676516584
498000000 -0.5148605920414473 -0.36519185393522163
499000000 -0.52370410789578 -0.35752033448279363
500000000 -0.5338672499743774 -0.35303599662404755
